! RsaToolbox (C) 2014 Rohde & Schwarz America
! 
! Number of points: 201
! Number of ports: 2
! Balanced ports?: No
! 
! 
# GHz S MA R 50
1                 0                 1                 4                 5                 
                  2                 3                 6                 7                 
1.005             8                 9                 12                13                
                  10                11                14                15                
1.01              16                17                20                21                
                  18                19                22                23                
1.015             24                25                28                29                
                  26                27                30                31                
1.02              32                33                36                37                
                  34                35                38                39                
1.025             40                41                44                45                
                  42                43                46                47                
1.03              48                49                52                53                
                  50                51                54                55                
1.035             56                57                60                61                
                  58                59                62                63                
1.04              64                65                68                69                
                  66                67                70                71                
1.045             72                73                76                77                
                  74                75                78                79                
1.05              80                81                84                85                
                  82                83                86                87                
1.055             88                89                92                93                
                  90                91                94                95                
1.06              96                97                100               101               
                  98                99                102               103               
1.065             104               105               108               109               
                  106               107               110               111               
1.07              112               113               116               117               
                  114               115               118               119               
1.075             120               121               124               125               
                  122               123               126               127               
1.08              128               129               132               133               
                  130               131               134               135               
1.085             136               137               140               141               
                  138               139               142               143               
1.09              144               145               148               149               
                  146               147               150               151               
1.095             152               153               156               157               
                  154               155               158               159               
1.1               160               161               164               165               
                  162               163               166               167               
1.105             168               169               172               173               
                  170               171               174               175               
1.11              176               177               180               181               
                  178               179               182               183               
1.115             184               185               188               189               
                  186               187               190               191               
1.12              192               193               196               197               
                  194               195               198               199               
1.125             200               201               204               205               
                  202               203               206               207               
1.13              208               209               212               213               
                  210               211               214               215               
1.135             216               217               220               221               
                  218               219               222               223               
1.14              224               225               228               229               
                  226               227               230               231               
1.145             232               233               236               237               
                  234               235               238               239               
1.15              240               241               244               245               
                  242               243               246               247               
1.155             248               249               252               253               
                  250               251               254               255               
1.16              256               257               260               261               
                  258               259               262               263               
1.165             264               265               268               269               
                  266               267               270               271               
1.17              272               273               276               277               
                  274               275               278               279               
1.175             280               281               284               285               
                  282               283               286               287               
1.18              288               289               292               293               
                  290               291               294               295               
1.185             296               297               300               301               
                  298               299               302               303               
1.19              304               305               308               309               
                  306               307               310               311               
1.195             312               313               316               317               
                  314               315               318               319               
1.2               320               321               324               325               
                  322               323               326               327               
1.205             328               329               332               333               
                  330               331               334               335               
1.21              336               337               340               341               
                  338               339               342               343               
1.215             344               345               348               349               
                  346               347               350               351               
1.22              352               353               356               357               
                  354               355               358               359               
1.225             360               361               364               365               
                  362               363               366               367               
1.23              368               369               372               373               
                  370               371               374               375               
1.235             376               377               380               381               
                  378               379               382               383               
1.24              384               385               388               389               
                  386               387               390               391               
1.245             392               393               396               397               
                  394               395               398               399               
1.25              400               401               404               405               
                  402               403               406               407               
1.255             408               409               412               413               
                  410               411               414               415               
1.26              416               417               420               421               
                  418               419               422               423               
1.265             424               425               428               429               
                  426               427               430               431               
1.27              432               433               436               437               
                  434               435               438               439               
1.275             440               441               444               445               
                  442               443               446               447               
1.28              448               449               452               453               
                  450               451               454               455               
1.285             456               457               460               461               
                  458               459               462               463               
1.29              464               465               468               469               
                  466               467               470               471               
1.295             472               473               476               477               
                  474               475               478               479               
1.3               480               481               484               485               
                  482               483               486               487               
1.305             488               489               492               493               
                  490               491               494               495               
1.31              496               497               500               501               
                  498               499               502               503               
1.315             504               505               508               509               
                  506               507               510               511               
1.32              512               513               516               517               
                  514               515               518               519               
1.325             520               521               524               525               
                  522               523               526               527               
1.33              528               529               532               533               
                  530               531               534               535               
1.335             536               537               540               541               
                  538               539               542               543               
1.34              544               545               548               549               
                  546               547               550               551               
1.345             552               553               556               557               
                  554               555               558               559               
1.35              560               561               564               565               
                  562               563               566               567               
1.355             568               569               572               573               
                  570               571               574               575               
1.36              576               577               580               581               
                  578               579               582               583               
1.365             584               585               588               589               
                  586               587               590               591               
1.37              592               593               596               597               
                  594               595               598               599               
1.375             600               601               604               605               
                  602               603               606               607               
1.38              608               609               612               613               
                  610               611               614               615               
1.385             616               617               620               621               
                  618               619               622               623               
1.39              624               625               628               629               
                  626               627               630               631               
1.395             632               633               636               637               
                  634               635               638               639               
1.4               640               641               644               645               
                  642               643               646               647               
1.405             648               649               652               653               
                  650               651               654               655               
1.41              656               657               660               661               
                  658               659               662               663               
1.415             664               665               668               669               
                  666               667               670               671               
1.42              672               673               676               677               
                  674               675               678               679               
1.425             680               681               684               685               
                  682               683               686               687               
1.43              688               689               692               693               
                  690               691               694               695               
1.435             696               697               700               701               
                  698               699               702               703               
1.44              704               705               708               709               
                  706               707               710               711               
1.445             712               713               716               717               
                  714               715               718               719               
1.45              720               721               724               725               
                  722               723               726               727               
1.455             728               729               732               733               
                  730               731               734               735               
1.46              736               737               740               741               
                  738               739               742               743               
1.465             744               745               748               749               
                  746               747               750               751               
1.47              752               753               756               757               
                  754               755               758               759               
1.475             760               761               764               765               
                  762               763               766               767               
1.48              768               769               772               773               
                  770               771               774               775               
1.485             776               777               780               781               
                  778               779               782               783               
1.49              784               785               788               789               
                  786               787               790               791               
1.495             792               793               796               797               
                  794               795               798               799               
1.5               800               801               804               805               
                  802               803               806               807               
1.505             808               809               812               813               
                  810               811               814               815               
1.51              816               817               820               821               
                  818               819               822               823               
1.515             824               825               828               829               
                  826               827               830               831               
1.52              832               833               836               837               
                  834               835               838               839               
1.525             840               841               844               845               
                  842               843               846               847               
1.53              848               849               852               853               
                  850               851               854               855               
1.535             856               857               860               861               
                  858               859               862               863               
1.54              864               865               868               869               
                  866               867               870               871               
